Circuit: * C:\Users\Agustín\Documents\DCE\DISE-O_CIRCUITOS_ELECTRONICOS_1C_2022\Diagrama_en_bloques_regulador_sumider.asc

Direct Newton iteration failed to find .op point.  (Use ".option noopiter" to skip.)
Starting Gmin stepping
Gmin = 10
Gmin = 1.07374
Gmin = 0.115292
Gmin = 0.0123794
Gmin = 0.00132923
Gmin = 0.000142725
Gmin = 1.5325e-005
Gmin = 1.6455e-006
Gmin = 1.76685e-007
Gmin = 1.89714e-008
Gmin = 2.03704e-009
Gmin = 2.18725e-010
Gmin = 2.34854e-011
Gmin = 2.52173e-012
Gmin = 2.70769e-013
Gmin = 0
Gmin stepping succeeded in finding the operating point.

Semiconductor Device Operating Points:
                        --- Diodes ---
Name:    d:u2:4      d:u2:3      d:u2:2      d:u2:1      d:u1:4
Model:   u2:md3      u2:md2      u2:md1       u2:md      u1:md3
Id:      4.36e+00    4.36e+00    2.53e-13    0.00e+00    1.20e-10
Vd:      2.53e-01    2.53e-01    2.53e-01    1.40e-04    8.17e-03
Req:     2.37e-03    2.37e-03    1.00e+12    1.00e+12    4.70e+07
CAP:     0.00e+00    0.00e+00    3.86e-10    4.54e-10    0.00e+00

Name:    d:u1:3      d:u1:2      d:u1:1
Model:   u1:md2      u1:md1       u1:md
Id:      1.20e-10    8.17e-15    4.61e-01
Vd:      8.17e-03    8.17e-03    1.69e+00
Req:     4.70e+07    1.00e+12    7.29e-02
CAP:     0.00e+00    3.47e-10    1.37e-06

                        --- Bipolar Transistors ---
Name:       q4          q3          q6          q5          q2
Model:    bc558b      bc558b      bc548b      bc548b      bc548b
Ib:      -2.85e-07   -1.98e-05    4.65e-07    4.61e-07   -4.76e-12
Ic:      -8.25e-05   -4.66e-12    1.03e-04    1.03e-04    4.66e-12
Vbe:     -6.50e-01   -6.63e-01    6.05e-01    6.05e-01   -4.99e-02
Vbc:      0.00e+00   -6.60e-01    0.00e+00   -9.91e-01   -4.64e+00
Vce:     -6.50e-01   -3.86e-03    6.05e-01    1.60e+00    4.59e+00
BetaDC:   2.89e+02    2.36e-07    2.20e+02    2.24e+02   -9.80e-01
Gm:       3.18e-03    7.44e-04    3.96e-03    3.97e-03    4.25e-14
Rpi:      9.30e+04    5.48e+04    6.54e+04    6.61e+04    6.71e+11
Rx:       0.00e+00    0.00e+00    0.00e+00    0.00e+00    0.00e+00
Ro:       6.34e+05    2.16e+02    6.12e+05    6.20e+05    6.13e+16
Cbe:      5.99e-11    6.19e-11    3.74e-11    3.74e-11    1.08e-11
Cbc:      9.81e-12    6.63e-11    5.25e-12    3.82e-12    2.62e-12
Cjs:      0.00e+00    0.00e+00    0.00e+00    0.00e+00    0.00e+00
BetaAC:   2.96e+02    4.07e+01    2.59e+02    2.63e+02    2.85e-02
Cbx:      0.00e+00    0.00e+00    0.00e+00    0.00e+00    0.00e+00
Ft:       7.27e+06    9.23e+05    1.48e+07    1.53e+07    1.77e-02

Name:       q1
Model:    bc548b
Ib:       4.45e-07
Ic:       1.03e-04
Vbe:      6.04e-01
Vbc:     -3.33e+00
Vce:      3.93e+00
BetaDC:   2.30e+02
Gm:       3.96e-03
Rpi:      6.85e+04
Rx:       0.00e+00
Ro:       6.45e+05
Cbe:      3.74e-11
Cbc:      2.87e-12
Cjs:      0.00e+00
BetaAC:   2.71e+02
Cbx:      0.00e+00
Ft:       1.57e+07

                        --- MOSFET Transistors ---
Name:        m:u2:1      m:u1:1
Model:        u2:mm       u1:mm
Id:          2.31e-04    2.18e-04
Vgs:        -4.61e+00    1.68e+00
Vds:         5.54e-05    1.69e+00
Vbs:         0.00e+00    0.00e+00
Vth:        -3.41e+00   -3.41e+00
Vdsat:      -1.20e+00   -0.00e+00
Gm:          1.92e-04    0.00e+00
Gds:         4.16e+00    0.00e+00
Gmb:         0.00e+00    0.00e+00
Cbd:         0.00e+00    0.00e+00
Cbs:         0.00e+00    0.00e+00
Cgsov:       3.45e-10    3.45e-10
Cgdov:       1.00e-15    1.00e-15
Cgbov:       0.00e+00    0.00e+00
Cgs:         0.00e+00    0.00e+00
Cgd:         0.00e+00    0.00e+00
Cgb:         0.00e+00    0.00e+00



Date: Wed Apr 20 23:02:29 2022
Total elapsed time: 3.171 seconds.

tnom = 27
temp = 27
method = trap
totiter = 659
traniter = 0
tranpoints = 0
accept = 0
rejected = 0
matrix size = 52
fillins = 24
solver = Normal
Matrix Compiler1: 4.28 KB object code size
Matrix Compiler2: 4.66 KB object code size  0.8/0.9/[0.5]

