Circuit: * C:\Users\santi\Documents\GitHub\DISE-O_CIRCUITOS_ELECTRONICOS_1C_2022\Diagrama_en_bloques_regulador_sumider.asc

Direct Newton iteration failed to find .op point.  (Use ".option noopiter" to skip.)
Starting Gmin stepping
Gmin = 10
Gmin = 1.07374
Gmin = 0.115292
Gmin = 0.0123794
Gmin = 0.00132923
Gmin = 0.000142725
Gmin = 1.5325e-005
vernier = 0.5
vernier = 0.25
vernier = 0.125
vernier = 0.0625
vernier = 0.03125
vernier = 0.015625
vernier = 0.0078125
Gmin = 9.80797e-006
vernier = 0.0104167
Gmin = 9.58726e-006
vernier = 0.0138889
vernier = 0.0185185
Gmin = 9.23666e-006
vernier = 0.0246913
vernier = 0.0329218
Gmin = 8.70767e-006
vernier = 0.0438957
Gmin = 7.91413e-006
vernier = 0.0585276
vernier = 0.0780367
Gmin = 6.77078e-006
vernier = 0.104049
vernier = 0.138732
Gmin = 5.2935e-006
vernier = 0.184976
Gmin = 3.56075e-006
vernier = 0.246634
vernier = 0.328846
Gmin = 1.87527e-006
vernier = 0.438461
vernier = 0.584614
Gmin = 6.91591e-007
vernier = 0.779486
Gmin = 1.43559e-007
vernier = 1
Gmin = 1.61257e-008
Gmin = 1.73148e-009
Gmin = 1.85916e-010
Gmin = 1.99626e-011
Gmin = 2.14347e-012
Gmin = 2.30153e-013
Gmin = 0
Gmin stepping succeeded in finding the operating point.

Semiconductor Device Operating Points:
                        --- Bipolar Transistors ---
Name:       q4          q3          q6          q5          q2
Model:    bc558b      bc558b      bc548b      bc548b      bc548b
Ib:      -1.71e-07   -1.70e-07    4.21e-07    4.55e-07    2.45e-07
Ic:      -4.89e-05   -4.98e-05    9.11e-05    9.95e-05    4.98e-05
Vbe:     -6.36e-01   -6.36e-01    6.02e-01    6.05e-01    5.86e-01
Vbc:      0.00e+00    1.40e+00    0.00e+00    2.70e-01   -2.60e+00
Vce:     -6.36e-01   -2.04e+00    6.02e-01    3.35e-01    3.19e+00
BetaDC:   2.85e+02    2.93e+02    2.17e+02    2.19e+02    2.03e+02
Gm:       1.89e-03    1.92e-03    3.52e-03    3.84e-03    1.92e-03
Rpi:      1.56e+05    1.57e+05    7.27e+04    6.69e+04    1.28e+05
Rx:       0.00e+00    0.00e+00    0.00e+00    0.00e+00    0.00e+00
Ro:       1.07e+06    1.08e+06    6.89e+05    6.25e+05    1.31e+06
Cbe:      5.84e-11    5.84e-11    3.71e-11    3.73e-11    3.56e-11
Cbc:      9.81e-12    6.25e-12    5.25e-12    6.43e-12    3.06e-12
Cjs:      0.00e+00    0.00e+00    0.00e+00    0.00e+00    0.00e+00
BetaAC:   2.94e+02    3.02e+02    2.56e+02    2.57e+02    2.46e+02
Cbx:      0.00e+00    0.00e+00    0.00e+00    0.00e+00    0.00e+00
Ft:       4.40e+06    4.73e+06    1.32e+07    1.40e+07    7.92e+06

Name:       q1
Model:    bc548b
Ib:       2.39e-07
Ic:       4.92e-05
Vbe:      5.85e-01
Vbc:     -4.00e+00
Vce:      4.59e+00
BetaDC:   2.06e+02
Gm:       1.90e-03
Rpi:      1.31e+05
Rx:       0.00e+00
Ro:       1.36e+06
Cbe:      3.56e-11
Cbc:      2.73e-12
Cjs:      0.00e+00
BetaAC:   2.50e+02
Cbx:      0.00e+00
Ft:       7.90e+06

                        --- VDMOSFET Transistors ---
Name:          m2          m1
Model:      hat1072h    hat1072h
Id:          9.54e-10   -4.95e-01
Vgs:         4.78e-02   -2.05e+00
Vds:        -1.65e+00   -1.35e+00
Vth:        -2.00e+00   -2.00e+00
Gm:          1.77e-17    6.36e+00
Gds:         2.52e-20    1.43e-02
Cgs:         4.30e-09    4.30e-09
Cgd:         1.27e-09    3.63e-09
Cbody:       1.84e-09    1.96e-09



Date: Mon Apr 18 18:17:18 2022
Total elapsed time: 11.437 seconds.

tnom = 27
temp = 27
method = trap
totiter = 602
traniter = 0
tranpoints = 0
accept = 0
rejected = 0
matrix size = 34
fillins = 19
solver = Normal
Matrix Compiler1: 3.19 KB object code size
Matrix Compiler2: 3.16 KB object code size  0.5/0.6/[0.4]

