Circuit: * C:\Users\Agustín\Documents\DCE\DISE-O_CIRCUITOS_ELECTRONICOS_1C_2022\Diagrama_en_bloques_regulador.asc

Direct Newton iteration failed to find .op point.  (Use ".option noopiter" to skip.)
Starting Gmin stepping
Gmin = 10
Gmin = 1.07374
Gmin = 0.115292
Gmin = 0.0123794
Gmin = 0.00132923
Gmin = 0.000142725
vernier = 0.5
vernier = 0.25
vernier = 0.125
vernier = 0.0625
Gmin = 0.000160318
vernier = 0.03125
vernier = 0.015625
vernier = 0.0078125
vernier = 0.00390625
Gmin = 0.00015892
vernier = 0.00195313
vernier = 0.000976563
vernier = 0.000488281
Gmin = 0
Gmin stepping failed

Starting source stepping with srcstepmethod=0
Source Step = 3.0303%
Source Step = 28.0303%
Source Step = 35.6061%
Source Step = 43.1818%
Source Step = 50.7576%
Source Step = 58.3333%
Source Step = 65.9091%
vernier = 0.375
Source Step = 77.2727%
Source Step = 88.6364%
Source Step = 100%
Source stepping succeeded in finding the operating point.

Semiconductor Device Operating Points:
                        --- Bipolar Transistors ---
Name:       q4          q3          q2          q1
Model:    bc558b      bc558b      bc548b      bc548b
Ib:      -1.68e-06   -1.65e-06    1.78e-06    1.76e-06
Ic:      -4.99e-04   -5.00e-04    5.00e-04    5.02e-04
Vbe:     -6.96e-01   -6.96e-01    6.45e-01    6.45e-01
Vbc:      0.00e+00    1.10e+00   -3.30e+00   -4.40e+00
Vce:     -6.96e-01   -1.80e+00    3.95e+00    5.05e+00
BetaDC:   2.97e+02    3.03e+02    2.81e+02    2.85e+02
Gm:       1.92e-02    1.92e-02    1.92e-02    1.93e-02
Rpi:      1.56e+04    1.59e+04    1.62e+04    1.64e+04
Rx:       0.00e+00    0.00e+00    0.00e+00    0.00e+00
Ro:       1.05e+05    1.07e+05    1.32e+05    1.34e+05
Cbe:      7.20e-11    7.20e-11    4.56e-11    4.57e-11
Cbc:      9.81e-12    6.62e-12    2.87e-12    2.65e-12
Cjs:      0.00e+00    0.00e+00    0.00e+00    0.00e+00
BetaAC:   2.98e+02    3.05e+02    3.11e+02    3.16e+02
Cbx:      0.00e+00    0.00e+00    0.00e+00    0.00e+00
Ft:       3.73e+07    3.89e+07    6.30e+07    6.36e+07

                        --- VDMOSFET Transistors ---
Name:          m2          m1
Model:      hat1072h    hat1072h
Id:          9.60e-10   -4.99e-01
Vgs:         1.58e-02   -2.05e+00
Vds:        -1.67e+00   -2.02e+00
Vth:        -2.00e+00   -2.00e+00
Gm:          3.35e-17    6.42e+00
Gds:         4.79e-20    1.41e-02
Cgs:         4.30e-09    4.30e-09
Cgd:         1.27e-09    2.81e-09
Cbody:       1.84e-09    1.73e-09



Date: Fri Apr 15 15:52:34 2022
Total elapsed time: 8.464 seconds.

tnom = 27
temp = 27
method = trap
totiter = 3022
traniter = 0
tranpoints = 0
accept = 0
rejected = 0
matrix size = 29
fillins = 17
solver = Normal
Matrix Compiler1: 2.69 KB object code size
Matrix Compiler2: off  [0.4]/0.8/0.4

