Circuit: * C:\Users\santi\Documents\GitHub\DISE-O_CIRCUITOS_ELECTRONICOS_1C_2022\LDO.asc

Ignoring empty pin current: Ix(u2:1)
Ignoring empty pin current: Ix(u2:2)
Ignoring empty pin current: Ix(u3:1)
Ignoring empty pin current: Ix(u3:2)
Ignoring empty pin current: Ix(u4:1)
Ignoring empty pin current: Ix(u4:2)
Direct Newton iteration for .op point succeeded.
Semiconductor Device Operating Points:
                        --- Diodes ---
Name:    d:u1:4      d:u1:3      d:u1:2      d:u1:1
Model:   u1:md3      u1:md2      u1:md1       u1:md
Id:     -1.02e-10   -7.40e-11   -1.76e-12   -6.27e-12
Vd:     -1.76e+00   -1.76e+00   -1.76e+00   -6.27e+00
Req:     1.00e+12    1.00e+12    1.00e+12    1.00e+12
CAP:     0.00e+00    0.00e+00    2.00e-10    2.30e-10

                        --- Bipolar Transistors ---
Name:       q6          q5          q2          q1
Model:    bc547c      bc547c      bc547c      bc547c
Ib:       2.29e-06    2.29e-06    2.25e-06   -6.90e-12
Ic:       1.04e-03    1.03e-03    1.03e-03    6.32e-12
Vbe:      6.23e-01    6.23e-01    6.22e-01   -5.73e-01
Vbc:      0.00e+00    1.49e-01   -6.56e-01   -6.30e+00
Vce:      6.23e-01    4.74e-01    1.28e+00    5.72e+00
BetaDC:   4.52e+02    4.51e+02    4.58e+02   -9.17e-01
Gm:       3.93e-02    3.93e-02    3.92e-02    5.92e-22
Rpi:      1.14e+04    1.14e+04    1.16e+04    1.00e+12
Rx:       1.00e+00    1.00e+00    1.00e+00    1.00e+00
Ro:       5.08e+04    5.06e+04    5.15e+04    3.81e+24
Cbe:      5.04e-11    5.04e-11    5.03e-11    9.68e-12
Cbc:      2.74e-12    4.03e-12    1.83e-12    1.04e-12
Cjs:      0.00e+00    0.00e+00    0.00e+00    0.00e+00
BetaAC:   4.49e+02    4.48e+02    4.55e+02    5.92e-10
Cbx:      1.69e-12    2.48e-12    1.12e-12    6.38e-13
Ft:       1.14e+08    1.10e+08    1.17e+08    1.40e-02

                        --- VDMOSFET Transistors ---
Name:          m1          m2
Model:      fdc5614p     2n7000
Id:         -3.96e-04    1.96e-06
Vgs:        -1.62e+00    5.00e+00
Vds:        -4.44e+00    6.09e-06
Vth:        -1.85e+00    3.00e+00
Gm:          7.55e-03    9.82e-07
Gds:         7.27e-06    4.25e-01
Cgs:         9.60e-10    5.00e-11
Cgd:         8.84e-11    8.00e-11
Cbody:       4.11e-10    5.00e-11

                        --- MOSFET Transistors ---
Name:        m:u1:1
Model:        u1:mm
Id:         -3.13e-01
Vgs:        -4.39e+00
Vds:        -6.15e+00
Vbs:         0.00e+00
Vth:        -4.00e+00
Vdsat:      -3.91e-01
Gm:          1.60e+00
Gds:         7.67e-03
Gmb:         0.00e+00
Cbd:         0.00e+00
Cbs:         0.00e+00
Cgsov:       3.45e-10
Cgdov:       1.00e-15
Cgbov:       0.00e+00
Cgs:         0.00e+00
Cgd:         0.00e+00
Cgb:         0.00e+00


