Circuit: * C:\Users\santi\Documents\GitHub\DISE-O_CIRCUITOS_ELECTRONICOS_1C_2022\LDO.asc

Ignoring empty pin current: Ix(u2:1)
Ignoring empty pin current: Ix(u2:2)
Ignoring empty pin current: Ix(u5:1)
Ignoring empty pin current: Ix(u5:2)
Ignoring empty pin current: Ix(u3:1)
Ignoring empty pin current: Ix(u3:2)
Direct Newton iteration for .op point succeeded.
Semiconductor Device Operating Points:
                        --- Diodes ---
Name:    d:u1:4      d:u1:3      d:u1:2      d:u1:1
Model:   u1:md3      u1:md2      u1:md1       u1:md
Id:     -1.02e-10   -1.48e-10   -2.30e-12   -6.26e-12
Vd:     -2.30e+00   -2.30e+00   -2.30e+00   -6.26e+00
Req:     1.00e+12    1.00e+12    1.00e+12    1.00e+12
CAP:     0.00e+00    0.00e+00    1.79e-10    2.30e-10

                        --- Bipolar Transistors ---
Name:       q4          q3          q6          q5          q2
Model:    bc558b      bc558b      bc548b      bc548b      bc548b
Ib:      -1.72e-12    1.95e-12    4.65e-07    4.66e-07    4.56e-07
Ic:      -6.35e-12   -1.05e-11    1.03e-04    1.03e-04    1.02e-04
Vbe:     -2.27e-01   -2.27e-01    6.05e-01    6.05e-01    6.05e-01
Vbc:      0.00e+00    3.66e+00    0.00e+00    1.13e-01   -1.21e+00
Vce:     -2.27e-01   -3.89e+00    6.05e-01    4.92e-01    1.82e+00
BetaDC:   3.70e+00   -5.37e+00    2.20e+02    2.20e+02    2.24e+02
Gm:       2.52e-10    2.70e-10    3.96e-03    3.96e-03    3.94e-03
Rpi:      2.92e+10    2.92e+10    6.54e+04    6.53e+04    6.68e+04
Rx:       0.00e+00    0.00e+00    0.00e+00    0.00e+00    0.00e+00
Ro:       6.09e+12    8.01e+12    6.12e+05    6.11e+05    6.27e+05
Cbe:      3.67e-11    3.67e-11    3.74e-11    3.74e-11    3.74e-11
Cbc:      9.81e-12    4.82e-12    5.25e-12    5.63e-12    3.67e-12
Cjs:      0.00e+00    0.00e+00    0.00e+00    0.00e+00    0.00e+00
BetaAC:   7.38e+00    7.90e+00    2.59e+02    2.59e+02    2.63e+02
Cbx:      0.00e+00    0.00e+00    0.00e+00    0.00e+00    0.00e+00
Ft:       8.56e-01    1.03e+00    1.48e+07    1.46e+07    1.53e+07

Name:       q1
Model:    bc548b
Ib:      -6.75e-12
Ic:       6.09e-12
Vbe:     -5.91e-01
Vbc:     -6.07e+00
Vce:      5.48e+00
BetaDC:  -9.02e-01
Gm:       3.58e-23
Rpi:      1.00e+12
Rx:       0.00e+00
Ro:       7.43e+25
Cbe:      6.81e-12
Cbc:      2.42e-12
Cjs:      0.00e+00
BetaAC:   3.58e-11
Cbx:      0.00e+00
Ft:       1.72e-02

                        --- VDMOSFET Transistors ---
Name:          m1          m2
Model:      fdc5614p     2n7000
Id:         -1.02e-04    2.01e-07
Vgs:        -1.55e+00    5.00e+00
Vds:        -3.89e+00    6.23e-07
Vth:        -1.85e+00    3.00e+00
Gm:          1.99e-03    1.00e-07
Gds:         1.90e-06    4.25e-01
Cgs:         9.60e-10    5.00e-11
Cgd:         9.56e-11    8.00e-11
Cbody:       4.34e-10    5.00e-11

                        --- MOSFET Transistors ---
Name:        m:u1:1
Model:        u1:mm
Id:         -3.56e-01
Vgs:        -3.83e+00
Vds:        -6.13e+00
Vbs:         0.00e+00
Vth:        -3.41e+00
Vdsat:      -4.17e-01
Gm:          1.70e+00
Gds:         8.73e-03
Gmb:         0.00e+00
Cbd:         0.00e+00
Cbs:         0.00e+00
Cgsov:       3.45e-10
Cgdov:       1.00e-15
Cgbov:       0.00e+00
Cgs:         0.00e+00
Cgd:         0.00e+00
Cgb:         0.00e+00



Date: Mon May 02 18:23:44 2022
Total elapsed time: 53.487 seconds.

tnom = 27
temp = 27
method = trap
totiter = 455
traniter = 0
tranpoints = 0
accept = 0
rejected = 0
matrix size = 57
fillins = 49
solver = Normal
Matrix Compiler1: 5.68 KB object code size
Matrix Compiler2: 5.50 KB object code size  1.7/3.3/[0.6]

