Circuit: * C:\Users\santi\Documents\GitHub\DISE-O_CIRCUITOS_ELECTRONICOS_1C_2022\LDO.asc

Direct Newton iteration for .op point skipped.
Gmin stepping method for .op point skipped.
Starting source stepping with srcstepmethod=0
Source Step = 3.0303%
Source Step = 33.3333%
Source Step = 63.6364%
Source Step = 93.9394%
Source stepping succeeded in finding the operating point.

Semiconductor Device Operating Points:
                        --- Diodes ---
Name:    d:u1:4      d:u1:3      d:u1:2      d:u1:1
Model:   u1:md3      u1:md2      u1:md1       u1:md
Id:     -1.02e-10   -1.48e-10   -2.31e-12   -6.26e-12
Vd:     -2.31e+00   -2.31e+00   -2.31e+00   -6.26e+00
Req:     1.00e+12    1.00e+12    1.00e+12    1.00e+12
CAP:     0.00e+00    0.00e+00    1.79e-10    2.30e-10

                        --- Bipolar Transistors ---
Name:       q4          q3          q6          q5          q2
Model:    bc558b      bc558b      bc548b      bc548b      bc548b
Ib:      -1.70e-12    1.96e-12    4.65e-07    4.66e-07    4.56e-07
Ic:      -6.36e-12   -1.05e-11    1.03e-04    1.03e-04    1.02e-04
Vbe:     -2.26e-01   -2.26e-01    6.05e-01    6.05e-01    6.05e-01
Vbc:      0.00e+00    3.66e+00    0.00e+00    1.13e-01   -1.22e+00
Vce:     -2.26e-01   -3.88e+00    6.05e-01    4.92e-01    1.82e+00
BetaDC:   3.75e+00   -5.34e+00    2.20e+02    2.20e+02    2.24e+02
Gm:       2.48e-10    2.65e-10    3.96e-03    3.96e-03    3.94e-03
Rpi:      2.95e+10    2.95e+10    6.54e+04    6.53e+04    6.68e+04
Rx:       0.00e+00    0.00e+00    0.00e+00    0.00e+00    0.00e+00
Ro:       6.17e+12    8.16e+12    6.12e+05    6.11e+05    6.27e+05
Cbe:      3.67e-11    3.67e-11    3.74e-11    3.74e-11    3.74e-11
Cbc:      9.81e-12    4.82e-12    5.25e-12    5.63e-12    3.66e-12
Cjs:      0.00e+00    0.00e+00    0.00e+00    0.00e+00    0.00e+00
BetaAC:   7.32e+00    7.83e+00    2.59e+02    2.59e+02    2.63e+02
Cbx:      0.00e+00    0.00e+00    0.00e+00    0.00e+00    0.00e+00
Ft:       8.40e-01    1.01e+00    1.48e+07    1.46e+07    1.53e+07

Name:       q1
Model:    bc548b
Ib:      -6.75e-12
Ic:       6.09e-12
Vbe:     -5.94e-01
Vbc:     -6.07e+00
Vce:      5.48e+00
BetaDC:  -9.02e-01
Gm:       3.17e-23
Rpi:      1.00e+12
Rx:       0.00e+00
Ro:       8.40e+25
Cbe:      6.80e-12
Cbc:      2.42e-12
Cjs:      0.00e+00
BetaAC:   3.17e-11
Cbx:      0.00e+00
Ft:       1.73e-02

                        --- VDMOSFET Transistors ---
Name:          m1          m2
Model:      fdc5614p     2n7000
Id:         -1.02e-04    5.35e-11
Vgs:        -1.55e+00    0.00e+00
Vds:        -3.88e+00    5.72e-04
Vth:        -1.85e+00    3.00e+00
Gm:          1.99e-03    0.00e+00
Gds:         1.90e-06    0.00e+00
Cgs:         9.60e-10    5.00e-11
Cgd:         9.57e-11    5.35e-11
Cbody:       4.34e-10    5.00e-11

                        --- MOSFET Transistors ---
Name:        m:u1:1
Model:        u1:mm
Id:         -3.49e-01
Vgs:        -3.83e+00
Vds:        -6.13e+00
Vbs:         0.00e+00
Vth:        -3.41e+00
Vdsat:      -4.14e-01
Gm:          1.69e+00
Gds:         8.58e-03
Gmb:         0.00e+00
Cbd:         0.00e+00
Cbs:         0.00e+00
Cgsov:       3.45e-10
Cgdov:       1.00e-15
Cgbov:       0.00e+00
Cgs:         0.00e+00
Cgd:         0.00e+00
Cgb:         0.00e+00



Date: Fri Apr 29 21:33:38 2022
Total elapsed time: 37.002 seconds.

tnom = 27
temp = 27
method = trap
totiter = 196
traniter = 0
tranpoints = 0
accept = 0
rejected = 0
matrix size = 55
fillins = 27
solver = Normal
Matrix Compiler1: 4.41 KB object code size
Matrix Compiler2: 4.86 KB object code size  1.6/1.8/[0.6]

