Circuit: * C:\Users\santi\Documents\GitHub\DISE-O_CIRCUITOS_ELECTRONICOS_1C_2022\LDO.asc

Ignoring empty pin current: Ix(u2:1)
Ignoring empty pin current: Ix(u2:2)
Ignoring empty pin current: Ix(u5:1)
Ignoring empty pin current: Ix(u5:2)
Ignoring empty pin current: Ix(u3:1)
Ignoring empty pin current: Ix(u3:2)
Direct Newton iteration for .op point succeeded.
Semiconductor Device Operating Points:
                        --- Diodes ---
Name:    d:u1:4      d:u1:3      d:u1:2      d:u1:1
Model:   u1:md3      u1:md2      u1:md1       u1:md
Id:     -1.02e-10   -1.48e-10   -2.30e-12   -6.26e-12
Vd:     -2.30e+00   -2.30e+00   -2.30e+00   -6.26e+00
Req:     1.00e+12    1.00e+12    1.00e+12    1.00e+12
CAP:     0.00e+00    0.00e+00    1.79e-10    2.30e-10

                        --- Bipolar Transistors ---
Name:       q4          q3          q6          q5          q2
Model:    bc558b      bc558b      bc548b      bc548b      bc548b
Ib:      -1.70e-12    1.97e-12    3.57e-06    3.58e-06    3.50e-06
Ic:      -6.36e-12   -1.05e-11    1.02e-03    1.02e-03    1.01e-03
Vbe:     -2.26e-01   -2.26e-01    6.65e-01    6.65e-01    6.64e-01
Vbc:      0.00e+00    3.66e+00    0.00e+00    2.31e-01   -1.21e+00
Vce:     -2.26e-01   -3.89e+00    6.65e-01    4.34e-01    1.87e+00
BetaDC:   3.75e+00   -5.33e+00    2.85e+02    2.84e+02    2.90e+02
Gm:       2.48e-10    2.65e-10    3.89e-02    3.88e-02    3.87e-02
Rpi:      2.95e+10    2.95e+10    7.90e+03    7.88e+03    8.08e+03
Rx:       0.00e+00    0.00e+00    0.00e+00    0.00e+00    0.00e+00
Ro:       6.17e+12    8.15e+12    6.17e+04    6.15e+04    6.32e+04
Cbe:      3.67e-11    3.67e-11    5.47e-11    5.47e-11    5.46e-11
Cbc:      9.81e-12    4.81e-12    5.25e-12    6.19e-12    3.67e-12
Cjs:      0.00e+00    0.00e+00    0.00e+00    0.00e+00    0.00e+00
BetaAC:   7.32e+00    7.84e+00    3.07e+02    3.06e+02    3.13e+02
Cbx:      0.00e+00    0.00e+00    0.00e+00    0.00e+00    0.00e+00
Ft:       8.41e-01    1.01e+00    1.03e+08    1.02e+08    1.06e+08

Name:       q1
Model:    bc548b
Ib:      -6.69e-12
Ic:       6.09e-12
Vbe:     -5.31e-01
Vbc:     -6.07e+00
Vce:      5.54e+00
BetaDC:  -9.10e-01
Gm:       3.59e-22
Rpi:      1.00e+12
Rx:       0.00e+00
Ro:       7.41e+24
Cbe:      7.07e-12
Cbc:      2.42e-12
Cjs:      0.00e+00
BetaAC:   3.59e-10
Cbx:      0.00e+00
Ft:       1.68e-02

                        --- VDMOSFET Transistors ---
Name:          m1          m2
Model:      fdc5614p     2n7000
Id:         -1.01e-03    2.01e-07
Vgs:        -1.67e+00    5.00e+00
Vds:        -3.89e+00    6.24e-07
Vth:        -1.85e+00    3.00e+00
Gm:          1.88e-02    1.00e-07
Gds:         1.88e-05    4.25e-01
Cgs:         9.60e-10    5.00e-11
Cgd:         9.78e-11    8.00e-11
Cbody:       4.34e-10    5.00e-11

                        --- MOSFET Transistors ---
Name:        m:u1:1
Model:        u1:mm
Id:         -3.57e-01
Vgs:        -3.83e+00
Vds:        -6.13e+00
Vbs:         0.00e+00
Vth:        -3.41e+00
Vdsat:      -4.18e-01
Gm:          1.71e+00
Gds:         8.76e-03
Gmb:         0.00e+00
Cbd:         0.00e+00
Cbs:         0.00e+00
Cgsov:       3.45e-10
Cgdov:       1.00e-15
Cgbov:       0.00e+00
Cgs:         0.00e+00
Cgd:         0.00e+00
Cgb:         0.00e+00


