Circuit: * C:\Users\santi\Documents\GitHub\DISE-O_CIRCUITOS_ELECTRONICOS_1C_2022\LDO_SinFoldback.asc

Direct Newton iteration failed to find .op point.  (Use ".option noopiter" to skip.)
Starting Gmin stepping
Gmin = 10
Gmin = 1.07374
Gmin = 0.115292
Gmin = 0.0123794
Gmin = 0.00132923
Gmin = 0.000142725
Gmin = 1.5325e-005
Gmin = 1.6455e-006
Gmin = 1.76685e-007
Gmin = 1.89714e-008
Gmin = 2.03704e-009
Gmin = 2.18725e-010
Gmin = 2.34854e-011
Gmin = 2.52173e-012
Gmin = 2.70769e-013
Gmin = 0
Gmin stepping succeeded in finding the operating point.

Semiconductor Device Operating Points:
                        --- Diodes ---
Name:    d:u1:4      d:u1:3      d:u1:2      d:u1:1
Model:   u1:md3      u1:md2      u1:md1       u1:md
Id:      2.52e+00    2.52e+00    2.48e-13   -1.35e-12
Vd:      2.48e-01    2.48e-01    2.48e-01   -1.35e+00
Req:     4.11e-03    4.11e-03    1.00e+12    1.00e+12
CAP:     0.00e+00    0.00e+00    3.85e-10    3.59e-10

                        --- Bipolar Transistors ---
Name:       q4          q3          q6          q5          q2
Model:    bc558b      bc558b      bc548b      bc548b      bc548b
Ib:      -1.74e-07   -1.71e-07    4.65e-07    4.64e-07    2.61e-07
Ic:      -4.98e-05   -5.21e-05    1.03e-04    1.03e-04    5.21e-05
Vbe:     -6.37e-01   -6.36e-01    6.05e-01    6.05e-01    5.87e-01
Vbc:      0.00e+00    3.37e+00    0.00e+00   -3.54e-01   -6.30e-01
Vce:     -6.37e-01   -4.01e+00    6.05e-01    9.59e-01    1.22e+00
BetaDC:   2.86e+02    3.04e+02    2.20e+02    2.22e+02    1.99e+02
Gm:       1.92e-03    2.01e-03    3.96e-03    3.97e-03    2.01e-03
Rpi:      1.53e+05    1.56e+05    6.54e+04    6.56e+04    1.20e+05
Rx:       0.00e+00    0.00e+00    0.00e+00    0.00e+00    0.00e+00
Ro:       1.05e+06    1.07e+06    6.12e+05    6.15e+05    1.22e+06
Cbe:      5.85e-11    5.85e-11    3.74e-11    3.74e-11    3.57e-11
Cbc:      9.81e-12    4.93e-12    5.25e-12    4.51e-12    4.15e-12
Cjs:      0.00e+00    0.00e+00    0.00e+00    0.00e+00    0.00e+00
BetaAC:   2.94e+02    3.13e+02    2.59e+02    2.60e+02    2.41e+02
Cbx:      0.00e+00    0.00e+00    0.00e+00    0.00e+00    0.00e+00
Ft:       4.49e+06    5.05e+06    1.48e+07    1.51e+07    8.02e+06

Name:       q1
Model:    bc548b
Ib:       2.43e-07
Ic:       5.02e-05
Vbe:      5.85e-01
Vbc:     -4.00e+00
Vce:      4.59e+00
BetaDC:   2.07e+02
Gm:       1.94e-03
Rpi:      1.29e+05
Rx:       0.00e+00
Ro:       1.33e+06
Cbe:      3.56e-11
Cbc:      2.73e-12
Cjs:      0.00e+00
BetaAC:   2.51e+02
Cbx:      0.00e+00
Ft:       8.05e+06

                        --- VDMOSFET Transistors ---
Name:          m1
Model:       2n7000
Id:          1.65e-04
Vgs:         5.00e+00
Vds:         5.11e-04
Vth:         3.00e+00
Gm:          8.23e-05
Gds:         4.25e-01
Cgs:         5.00e-11
Cgd:         8.00e-11
Cbody:       5.00e-11

                        --- MOSFET Transistors ---
Name:        m:u1:1
Model:        u1:mm
Id:         -4.95e-01
Vgs:        -3.94e+00
Vds:        -1.17e+00
Vbs:         0.00e+00
Vth:        -3.41e+00
Vdsat:      -5.25e-01
Gm:          1.88e+00
Gds:         1.38e-02
Gmb:         0.00e+00
Cbd:         0.00e+00
Cbs:         0.00e+00
Cgsov:       3.45e-10
Cgdov:       1.00e-15
Cgbov:       0.00e+00
Cgs:         0.00e+00
Cgd:         0.00e+00
Cgb:         0.00e+00



Date: Fri Apr 22 13:37:32 2022
Total elapsed time: 7.525 seconds.

tnom = 27
temp = 27
method = trap
totiter = 715
traniter = 0
tranpoints = 0
accept = 0
rejected = 0
matrix size = 42
fillins = 16
solver = Normal
Matrix Compiler1: 3.36 KB object code size
Matrix Compiler2: 3.69 KB object code size  1.2/2.0/[0.4]

