Circuit: * C:\Users\Agust\Documents\Facultad\Diseño de Circuitos Electronicos\Trabajo Práctico\ReguladorTension-1ite.asc

Direct Newton iteration for .op point succeeded.
Semiconductor Device Operating Points:
                        --- Bipolar Transistors ---
Name:       q4          q3          q2          q1
Model:    qbd139      qmps918     qmps918     qmps918
Ib:       2.96e-04    3.28e-06    7.76e-06    5.91e-06
Ic:       3.27e-02    2.92e-04    7.84e-04    5.98e-04
Vbe:      3.91e-01    6.46e-01    6.78e-01    6.67e-01
Vbc:     -2.61e+00   -1.97e+00   -3.65e+00   -5.63e+00
Vce:      3.00e+00    2.61e+00    4.33e+00    6.30e+00
BetaDC:   1.11e+02    8.90e+01    1.01e+02    1.01e+02
Gm:       1.29e+00    1.12e-02    2.95e-02    2.26e-02
Rpi:      9.15e+01    9.22e+03    3.70e+03    4.94e+03
Rx:       2.67e+01    5.26e+01    5.26e+01    5.26e+01
Ro:       1.19e+03    2.32e+05    8.87e+04    1.20e+05
Cbe:      2.29e-09    5.90e-12    9.61e-12    8.23e-12
Cbc:      5.50e-12    2.68e-12    2.27e-12    2.01e-12
Cjs:      0.00e+00    0.00e+00    0.00e+00    0.00e+00
BetaAC:   1.18e+02    1.03e+02    1.09e+02    1.12e+02
Cbx:      6.12e-13    0.00e+00    0.00e+00    0.00e+00
Ft:       8.91e+07    2.07e+08    3.95e+08    3.52e+08



Date: Sun Apr 03 17:24:00 2022
Total elapsed time: 0.383 seconds.

tnom = 27
temp = 27
method = trap
totiter = 11
traniter = 0
tranpoints = 0
accept = 0
rejected = 0
matrix size = 21
fillins = 14
solver = Normal
Matrix Compiler1: 2.27 KB object code size
Matrix Compiler2: 2.03 KB object code size
