Circuit: * C:\Users\Agustín\Documents\DCE\DISE-O_CIRCUITOS_ELECTRONICOS_1C_2022\ReguladorTension-1ite.asc

.step vparam=6
Direct Newton iteration for .op point succeeded.
Semiconductor Device Operating Points:
                        --- Bipolar Transistors ---
Name:       q2          q1
Model:    qmps918     qmps918
Ib:       1.83e-05    8.29e-06
Ic:       1.84e-03    8.62e-04
Vbe:      7.17e-01    6.81e-01
Vbc:     -6.93e-01   -5.32e+00
Vce:      1.41e+00    6.00e+00
BetaDC:   1.01e+02    1.04e+02
Gm:       6.68e-02    3.24e-02
Rpi:      1.52e+03    3.45e+03
Rx:       5.26e+01    5.26e+01
Ro:       3.61e+04    8.25e+04
Cbe:      1.71e-11    1.02e-11
Cbc:      3.44e-12    2.04e-12
Cjs:      0.00e+00    0.00e+00
BetaAC:   1.01e+02    1.12e+02
Cbx:      0.00e+00    0.00e+00
Ft:       5.18e+08    4.21e+08

                        --- VDMOSFET Transistors ---
Name:          m1
Model:      hat1072h
Id:         -6.00e-02
Vgs:        -4.59e+00
Vds:        -3.75e-04
Vth:        -2.00e+00
Gm:          2.32e-02
Gds:         2.67e+02
Cgs:         4.30e-09
Cgd:         4.20e-09
Cbody:       3.00e-09


.step vparam=6.2
.step vparam=6.4
.step vparam=6.6
.step vparam=6.8
.step vparam=7

Date: Mon Apr 11 17:54:03 2022
Total elapsed time: 4.861 seconds.

tnom = 27
temp = 27
method = trap
totiter = 11
traniter = 0
tranpoints = 0
accept = 0
rejected = 0
matrix size = 18
fillins = 6
solver = Normal
Matrix Compiler1: 1.45 KB object code size
Matrix Compiler2: 1.59 KB object code size
